Index	Frequency/Hz	Z/Ohm	ZRe/Ohm	negZIm/Ohm	negPhase/Degr	Cs/F	CR	ReadingStatus	Idc/uA	Iac/uA	Edc/V	Eac/V	
1	1000	354.049865304519	349.986	53.489316	8.68943129791713	2.97545295011616E-06	5 mA	OK	0	0			
2	784.76	360.650004370661	355.505	60.701076	9.68958529203208	3.34108006867744E-06	5 mA	OK	0	0			
3	615.848	368.301981754888	361.666	69.59924	10.892873089071	3.71314662473991E-06	5 mA	OK	0	0			
4	483.293	375.037854030284	366.456	79.770872	12.2806763471679	4.12824332427084E-06	5 mA	OK	0	0			
5	379.269	382.537796706581	371.124	92.747736	14.0314100062066	4.52448828340009E-06	5 mA	OK	0	0			
6	297.635	390.763055891931	375.191	109.213	16.2295600035257	4.89622981839525E-06	5 mA	OK	0	0			
7	233.572	401.779556504559	379.592	131.669	19.1301155573313	5.17506507112972E-06	5 mA	OK	0	0			
8	183.298	415.41767680372	383.051	160.76	22.7669656206385	5.40112723097484E-06	5 mA	OK	0	0			
9	143.845	434.533133201601	386.865	197.875	27.088987150339	5.59157858854294E-06	5 mA	OK	0	0			
10	112.883	461.996683661257	391.485	245.317	32.0725716780748	5.7473010138157E-06	5 mA	OK	0	0			
11	88.586712	501.436127763048	397.301	305.925	37.5965635727365	5.87268329060654E-06	5 mA	OK	0	0			
12	69.519304	556.549459894626	403.947	382.85	43.4640517284252	5.97979181969336E-06	5 mA	OK	0	0			
13	54.555968	632.495680747308	412.42	479.542	49.303515659977	6.08346782487877E-06	5 mA	OK	0	0			
14	42.813344	736.515928991356	423.747	602.407	54.8765610135477	6.17093499450487E-06	5 mA	OK	0	0			
15	33.5982	874.785455085417	437.885	757.302	59.962762758394	6.25511094249655E-06	5 mA	OK	0	0			
16	26.366524	1054.35012420211	456.631	950.338	64.3360292431094	6.35168800759408E-06	5 mA	OK	0	0			
17	20.691394	1289.58915018544	479.874	1196.98	68.1539561269288	6.42604092635448E-06	5 mA	OK	0	0			
18	16.237779	1586.9357359698	516.017	1500.697	71.0243884788818	6.53131291100021E-06	5 mA	OK	0	0			
19	12.742759	1968.96464275923	562.756	1886.83	73.392539005576	6.61948022911862E-06	5 mA	OK	0	0			
20	10.000007	2445.34109281303	626.462	2363.734	75.156131128899	6.73319551538004E-06	5 mA	Underload	0	0			
21	7.847605	3053.11757769939	716.436	2967.869	76.4285836702014	6.83342243053582E-06	1 mA	OK	0	0			
22	6.158487	3819.04595473634	846.272	3724.102	77.1974136752507	6.93944175925844E-06	1 mA	OK	0	0			
23	4.832934	4777.37181999748	1040.191	4662.755	77.4240901435912	7.06263351274894E-06	1 mA	OK	0	0			
24	3.792693	5939.88294585424	1350.933	5784.219	76.8539360146276	7.25483791180805E-06	1 mA	Underload	0	0			
25	2.976354	7416.38654200926	1804.28	7193.564	75.9196190653474	7.43346731211606E-06	200 uA	OK	0	0			
26	2.335723	9272.01377638132	2448.106	8942.987	74.6905729798055	7.61931967100902E-06	200 uA	OK	0	0			
27	1.832982	11534.7255988014	3406.501	11020.238	72.8229307499638	7.87899740685932E-06	200 uA	OK	0	0			
28	1.438451	14144.6954261463	4710.803	13337.194	70.5463742347781	8.29584426847095E-06	200 uA	OK	0	0			
29	1.128839	17421.6932934054	6613.533	16117.586	67.6901741038688	8.74758417222108E-06	200 uA	OK	0	0			
30	0.885867	21243.7338387609	9886.82	18802.846	62.2639294011698	9.55494119904643E-06	200 uA	OK	0	0			
31	0.695193	24783.05931873	13640.962	20691.162	56.6045271312102	1.10644507538771E-05	200 uA	OK	0	0			
32	0.54556	27992.600768235	18265.336	21212.336	49.2691995999081	1.37527362216914E-05	200 uA	OK	0	0			
33	0.428133	29117.6263655382	22520.068	18457.592	39.3382656505213	2.0140320891742E-05	200 uA	OK	0	0			
34	0.335982	31114.3914883547	26048.266	17017.438	33.1567484830825	2.78361997086431E-05	200 uA	OK	0	0			
35	0.263665	32002.1835458216	28498.904	14558.579	27.0600798520298	4.14618485240457E-05	200 uA	OK	0	0			
36	0.206914	32753.5493046441	30408.654	12169.994	21.8120193069793	6.32033198831616E-05	200 uA	OK	0	0			
37	0.162377	33248.7713078926	31564.512	10448.08	18.3149141690816	9.38121585800361E-05	200 uA	OK	0	0			
38	0.127427	32912.5218799974	31871.504	8212.267	14.4489924082599	0.00015208823227389	200 uA	OK	0	0			
39	0.1	31961.4112891218	31355.608	6193.356	11.1732326504216	0.000256976900878773	200 uA	OK	0	0			
